EXPLAIN
TAG	GALVEIS
TITLE	LABEL	Galvanostatic EIS	Test Identifier
DATE	LABEL	10/25/2024	Date
TIME	LABEL	21:09:58.727375	Time
NOTES	NOTES	1	Notes...
	
ZCURVE	TABLE
	Pt	Time	Freq	Zreal	Zimag	Zsig	Zmod	Zphz	Idc	Vdc	IERange
	#	s	Hz	ohm	ohm	V	ohm	°	A	V	#
	0	1.541807	1000078	0.04711733	0.1695821	1	0.1760061	74.47238	0.5291879	1.461591	12
	1	1.847517	794390.6	0.03961036	0.1338537	1	0.1395916	73.51532	0.5170319	1.461621	12
	2	2.147836	630984.4	0.03455028	0.1080297	1	0.1134202	72.26459	0.509367	1.461665	12
	3	2.665093	501234.4	0.03086575	0.08672033	1	0.09204949	70.40819	0.5045748	1.461714	12
	4	2.975051	398109.4	0.02855069	0.06948407	1	0.07512109	67.66246	0.5015191	1.461761	12
	5	3.48474	316265.6	0.02703978	0.05557073	1	0.06180013	64.05323	0.4996185	1.461789	12
	6	3.996768	251203.1	0.02596197	0.04438268	1	0.05141835	59.67419	0.4983871	1.461837	12
	7	4.507379	199546.9	0.02523095	0.03543061	1	0.04349631	54.54446	0.4976202	1.461879	12
	8	4.858955	158578.1	0.02477222	0.02830241	1	0.03761236	48.80534	0.4971633	1.461911	12
	9	5.155042	125953.1	0.02434961	0.02262959	1	0.03324157	42.90319	0.4968934	1.461937	12
	10	5.453223	100078.1	0.02406476	0.01796656	1	0.03003182	36.74473	0.496252	1.461942	12
	11	5.963245	79453.12	0.02389302	0.01429345	1	0.02784204	30.88901	0.4962541	1.461971	12
	12	6.264089	63140.62	0.0237587	0.0113309	1	0.02632233	25.49722	0.4962574	1.461999	12
	13	6.785897	50203.12	0.02367871	0.008970723	1	0.02532104	20.74928	0.4962339	1.46202	12
	14	7.292209	39890.62	0.02365262	0.007073194	1	0.02468758	16.64902	0.4962316	1.462049	12
	15	7.801973	31640.63	0.02364305	0.005564674	1	0.02428908	13.2442	0.4962344	1.462074	12
	16	8.231049	25171.88	0.02365577	0.00435057	1	0.02405251	10.42091	0.4962373	1.462093	12
	17	8.754726	20015.62	0.0236642	0.003411872	1	0.0239089	8.20429	0.496241	1.462124	12
	18	9.052588	15890.62	0.02367306	0.002631936	1	0.02381891	6.344008	0.4962473	1.462143	12
	19	9.574113	12609.38	0.02372237	0.002013345	1	0.02380766	4.851132	0.4962574	1.462172	12
	20	9.871175	10078.12	0.02375273	0.00151941	1	0.02380128	3.660098	0.4962381	1.462194	12
	21	10.18545	8015.625	0.02380079	0.001068293	1	0.02382475	2.569982	0.496257	1.462214	12
	22	10.70187	6328.125	0.02383567	0.0007203231	1	0.02384655	1.730974	0.4962624	1.462225	12
	23	11.20632	5015.625	0.0238721	0.0004552118	1	0.02387644	1.092428	0.4962465	1.462247	12
	24	11.71615	3984.375	0.02394054	0.0002115609	1	0.02394147	0.5063059	0.4962552	1.462282	12
	25	12.03208	3170.956	0.0240097	1.80827e-05	1	0.02400971	0.04315182	0.4962541	1.462293	12
	26	12.61744	2527.573	0.02404596	-0.0001571148	1	0.02404648	-0.3743618	0.4962568	1.462308	12
	27	12.94887	1976.103	0.02410866	-0.0003562201	1	0.0241113	-0.8465182	0.4962527	1.462326	12
	28	13.46233	1577.524	0.02421542	-0.0005018738	1	0.02422062	-1.187307	0.4962493	1.462351	12
	29	13.99764	1265.625	0.02427941	-0.0006406301	1	0.02428786	-1.51144	0.4962558	1.462372	12
	30	14.28231	998.2639	0.02436339	-0.0008255655	1	0.02437738	-1.940753	0.4962502	1.462384	12
	31	14.57773	796.875	0.02445343	-0.0009724822	1	0.02447276	-2.277381	0.4962626	1.462398	12
	32	14.88893	627.7902	0.0245407	-0.001230768	1	0.02457155	-2.8711	0.496249	1.462419	12
	33	15.18435	505.5147	0.02464445	-0.001431766	1	0.024686	-3.32497	0.4962448	1.462432	12
	34	15.47473	397.9953	0.0247987	-0.001719923	1	0.02485827	-3.967416	0.4963382	1.462445	12
	35	15.78742	315.5048	0.02494569	-0.002039119	1	0.02502889	-4.673101	0.4963287	1.462456	12
	36	16.09837	252.4038	0.02513816	-0.002410975	1	0.02525351	-5.478422	0.4963324	1.462471	12
	37	16.38287	198.6229	0.02535101	-0.002882368	1	0.02551434	-6.486581	0.4963408	1.46248	12
	38	16.69973	158.3615	0.0256138	-0.003414697	1	0.02584042	-7.593595	0.4963388	1.462492	12
	39	17.05399	125.558	0.02594298	-0.00404141	1	0.02625588	-8.854396	0.4963285	1.4625	12
	40	17.37397	100.4464	0.02633828	-0.004782873	1	0.02676903	-10.29241	0.4963393	1.462507	12
	41	17.92222	79.00281	0.02692861	-0.005680613	1	0.02752126	-11.91195	0.4963354	1.462517	12
	42	18.50083	63.3446	0.02762114	-0.006611408	1	0.02840138	-13.46108	0.4963314	1.46253	12
	43	18.87179	50.22321	0.02849896	-0.007646569	1	0.02950696	-15.01931	0.4963285	1.462534	12
	44	19.27306	39.72458	0.02970005	-0.008818943	1	0.03098172	-16.53792	0.49633	1.46254	12
	45	19.59385	31.6723	0.03095355	-0.009907962	1	0.03250062	-17.74941	0.4963336	1.462545	12
	46	20.08819	25.20161	0.03252517	-0.01108975	1	0.03436377	-18.82727	0.4963284	1.462555	12
	47	20.36184	19.86229	0.03460539	-0.01223313	1	0.03670399	-19.46869	0.4963375	1.462599	12
	48	20.67808	15.83615	0.03648921	-0.01337351	1	0.03886275	-20.12818	0.4963425	1.462583	12
	49	20.98346	12.60081	0.03887611	-0.01428967	1	0.04141916	-20.18188	0.4963466	1.462586	12
	50	21.55369	9.931145	0.04173741	-0.01529375	1	0.04445121	-20.12424	0.4963488	1.462571	12
	51	22.12238	7.944915	0.04463592	-0.01594173	1	0.0473973	-19.6542	0.4963409	1.462584	12
	52	23.31024	6.317385	0.04783256	-0.01607426	1	0.05046123	-18.57507	0.4963409	1.462604	12
	53	24.38368	5.008013	0.0511081	-0.01560746	1	0.0534381	-16.9817	0.4963399	1.462636	12
	54	25.71937	3.945707	0.05423869	-0.01466838	1	0.05618716	-15.13313	0.4963372	1.462651	12
	55	27.38118	3.158693	0.05680463	-0.01336165	1	0.05835495	-13.23656	0.4963507	1.462682	12
	56	29.44316	2.504006	0.0590006	-0.01178779	1	0.06016663	-11.29842	0.4963314	1.462722	12
	57	33.02272	1.998082	0.06069338	-0.01021079	1	0.0615463	-9.549761	0.4963291	1.462778	12
	58	36.23484	1.584686	0.06198947	-0.008682241	1	0.06259453	-7.972978	0.4963305	1.462849	12
	59	41.04839	1.266892	0.06290885	-0.00734096	1	0.06333572	-6.655857	0.4963306	1.462944	12
	60	46.12221	0.9990409	0.06369216	-0.006049532	1	0.06397881	-5.425723	0.49633	1.463031	12
	61	51.21543	0.7944915	0.06425054	-0.005041861	1	0.06444805	-4.486913	0.4963339	1.463093	12
	62	59.17245	0.6334459	0.06458671	-0.004180792	1	0.06472188	-3.703672	0.4963237	1.463175	12
	63	71.15635	0.5040323	0.06477597	-0.003508217	1	0.0648709	-3.100067	0.4963146	1.463356	12
	64	83.70084	0.400641	0.06513533	-0.002931974	1	0.06520128	-2.577348	0.4963127	1.463607	12
	65	102.709	0.316723	0.06546447	-0.002449637	1	0.06551029	-2.14297	0.4963076	1.463762	12
	66	118.6981	0.2520161	0.06543791	-0.002091604	1	0.06547133	-1.830732	0.4963109	1.46393	12
	67	148.727	0.2003205	0.06571358	-0.001782524	1	0.06573775	-1.553804	0.4963112	1.464201	12
	68	185.3607	0.1588983	0.0658705	-0.001555721	1	0.06588887	-1.352953	0.4963084	1.464499	12
	69	222.3049	0.1260081	0.0661796	-0.001321267	1	0.06619278	-1.143751	0.4962982	1.464777	12
	70	257.4416	0.1001603	0.06649166	-0.001175554	1	0.06650206	-1.012868	0.4962935	1.46508	12
